             * c:\users\lenovo\esim-workspace\and_gate\and_gate.cir
             Transient Analysis  Sat Mar 01 19:14:34  2025
--------------------------------------------------------------------------------
Index   time            v1#branch       v2#branch       v3#branch       
--------------------------------------------------------------------------------
0	0.000000e+00	0.000000e+00	0.000000e+00	-1.63155e-11	
1	5.000000e-11	-2.35533e-02	-4.75028e-02	4.247650e-02	
2	8.587560e-11	-2.58095e-02	-4.92936e-02	4.415173e-02	
3	1.576268e-10	-2.90271e-02	-5.15112e-02	4.570354e-02	
4	2.445634e-10	-3.23279e-02	-5.53504e-02	4.864042e-02	
5	3.238268e-10	-3.15307e-02	-5.78653e-02	4.751893e-02	
6	4.165624e-10	-2.93718e-02	-6.55850e-02	4.843583e-02	
7	5.303610e-10	-2.32517e-02	-7.42183e-02	4.606712e-02	
8	7.333373e-10	-1.64482e-02	-9.06880e-02	4.849853e-02	
9	1.139290e-09	-6.17220e-02	-1.53484e-01	1.691710e-01	
10	1.551686e-09	-4.27877e-02	-1.36620e-01	1.382423e-01	
11	2.063043e-09	-6.85845e-02	-1.61876e-01	1.927118e-01	
12	2.638897e-09	-4.42033e-02	-1.37748e-01	1.424830e-01	
13	3.335269e-09	-6.87289e-02	-1.61526e-01	1.924787e-01	
14	4.441786e-09	-5.18452e-02	-1.35122e-01	1.456564e-01	
15	5.000000e-09	-1.16460e-01	-1.44667e-01	2.117384e-01	
16	5.030484e-09	-6.02830e-02	-7.37249e-02	9.873450e-02	
17	5.091453e-09	-3.64706e-02	-3.89953e-02	4.956177e-02	
18	5.213390e-09	-3.52140e-02	-2.29800e-02	4.393582e-02	
19	5.374154e-09	-3.44558e-02	-1.35664e-02	4.226260e-02	
20	5.554999e-09	-2.96559e-02	-6.03783e-03	3.458002e-02	
21	5.844711e-09	-2.52884e-02	-3.62425e-03	3.014238e-02	
22	6.224149e-09	-1.78738e-02	-1.04485e-03	2.025091e-02	
23	6.915897e-09	-1.16607e-02	-2.21330e-03	1.404746e-02	
24	7.841121e-09	-5.35688e-03	-6.19950e-04	5.390688e-03	
25	8.899358e-09	-4.25707e-03	-1.77012e-03	4.961157e-03	
26	9.893791e-09	-2.03898e-03	-1.46622e-04	1.019663e-03	
27	1.106131e-08	-2.78998e-03	-1.39522e-03	2.828757e-03	
28	1.241911e-08	-1.26299e-03	1.779351e-04	-2.66908e-04	
29	1.405942e-08	-2.37154e-03	-1.11879e-03	2.015084e-03	
30	1.685062e-08	-9.87756e-04	4.109416e-04	-8.46956e-04	
31	2.243302e-08	-2.12781e-03	-9.14125e-04	1.547223e-03	
32	3.359781e-08	-7.54464e-04	5.699334e-04	-1.17401e-03	
33	4.495100e-08	-1.90521e-03	-8.20576e-04	1.380605e-03	
34	5.563077e-08	-1.20370e-03	1.185556e-03	-1.45831e-03	
35	6.673282e-08	-2.06303e-03	-7.59337e-04	1.587402e-03	
36	8.084700e-08	-1.15912e-03	8.585068e-04	-9.11222e-04	
37	1.022724e-07	-1.70381e-03	-9.38113e-04	1.695160e-03	
38	1.335110e-07	-4.18092e-04	7.024098e-04	-1.20384e-03	
39	1.840090e-07	-9.11576e-04	-1.12444e-03	1.431909e-03	
40	2.596171e-07	7.596343e-05	6.320695e-04	-1.29475e-03	
41	2.883946e-07	-3.59278e-04	-7.39337e-04	1.054537e-03	
42	3.154015e-07	1.981094e-04	6.773856e-04	-9.38640e-04	
43	3.158172e-07	-2.22662e-04	-3.55397e-05	-5.81813e-04	
44	3.159211e-07	-1.85611e-04	-1.72784e-05	-7.88855e-04	
45	3.161290e-07	-1.29938e-04	-1.11637e-05	-1.27826e-03	
46	3.161809e-07	-1.21296e-04	-1.40939e-05	-1.42018e-03	
47	3.162848e-07	-9.70613e-05	-5.09679e-06	-2.48674e-03	
48	3.163108e-07	-1.09741e-04	-1.84592e-05	-3.15416e-03	
49	3.163173e-07	-1.11492e-04	-1.97042e-05	-3.51950e-03	
50	3.163303e-07	-1.16473e-04	-2.27820e-05	-4.48535e-03	
51	3.163563e-07	-1.47720e-04	-3.75435e-05	-1.00265e-02	
52	3.163598e-07	-1.59461e-04	-4.24931e-05	-1.21319e-02	
53	3.163667e-07	-1.97395e-04	-5.80428e-05	-1.88652e-02	
54	3.163684e-07	-2.13011e-04	-6.43399e-05	-2.16109e-02	

Index   time            v1#branch       v2#branch       v3#branch       
--------------------------------------------------------------------------------
55	3.163719e-07	-2.57474e-04	-8.20587e-05	-2.96768e-02	
56	3.163789e-07	-5.51791e-04	-1.96776e-04	-8.30390e-02	
57	3.163806e-07	-8.10486e-04	-2.96380e-04	-1.32379e-01	
58	3.163841e-07	-1.22840e-02	-4.52804e-03	-2.43752e+00	
59	3.163875e-07	4.907472e-03	2.427440e-03	2.093604e+00	
60	3.163913e-07	-1.98962e-03	-1.59221e-03	-1.87555e+00	
61	3.163952e-07	2.670790e-04	6.436915e-04	1.737384e+00	
62	3.164023e-07	2.514748e-04	-4.93163e-04	-1.61889e+00	
63	3.164036e-07	-7.32169e-04	-4.51926e-04	-1.46615e-01	
64	3.164063e-07	1.608401e-04	1.092322e-04	1.485823e-01	
65	3.164115e-07	-1.74452e-04	-1.97813e-04	-1.21085e-01	
66	3.164221e-07	8.221594e-06	4.814556e-05	1.362113e-01	
67	3.164432e-07	-1.17800e-04	-1.24804e-04	-1.17811e-01	
68	3.164700e-07	-2.65042e-05	6.637743e-05	1.296458e-01	
69	3.165078e-07	-7.52295e-05	-7.50188e-05	-1.14598e-01	
70	3.165835e-07	-4.31068e-05	7.306528e-05	1.245491e-01	
71	3.166555e-07	8.020997e-03	7.319628e-03	6.893800e-02	
72	3.167108e-07	-7.57433e-03	-6.71581e-03	-7.51467e-02	
73	3.167631e-07	6.637362e-03	5.904419e-03	8.072048e-02	
74	3.168272e-07	-6.25811e-03	-5.45068e-03	-8.55845e-02	
75	3.169554e-07	5.721053e-03	5.004167e-03	8.746989e-02	
76	3.170936e-07	-5.67233e-03	-4.87539e-03	-8.97612e-02	
77	3.173350e-07	5.276863e-03	4.575638e-03	9.056006e-02	
78	3.176682e-07	-5.39659e-03	-4.60291e-03	-9.16621e-02	
79	3.181618e-07	5.091646e-03	4.396211e-03	9.186553e-02	
80	3.189480e-07	-5.27163e-03	-4.48133e-03	-9.25093e-02	
81	3.201427e-07	5.030794e-03	4.336342e-03	9.237594e-02	
82	3.221314e-07	-5.21629e-03	-4.42886e-03	-9.28435e-02	
83	3.258522e-07	5.015579e-03	4.334155e-03	8.935996e-02	
84	3.328302e-07	-5.08990e-03	-4.33257e-03	-8.73798e-02	
85	3.448034e-07	4.946941e-03	4.266672e-03	8.693970e-02	
86	3.473660e-07	-5.56742e-05	-1.93013e-05	-3.12891e-04	
87	3.480066e-07	-5.66724e-05	-1.99170e-05	-5.06428e-04	
88	3.492879e-07	-5.86642e-05	-2.08596e-05	-8.48987e-04	
89	3.495019e-07	-6.01935e-05	-2.14521e-05	-1.06316e-03	
90	3.495554e-07	-6.20065e-05	-2.21894e-05	-1.33256e-03	
91	3.496624e-07	-6.79352e-05	-2.46905e-05	-2.19909e-03	
92	3.496892e-07	-7.10130e-05	-2.59867e-05	-2.65181e-03	
93	3.496959e-07	-7.29087e-05	-2.67129e-05	-2.95290e-03	
94	3.497092e-07	-7.78942e-05	-2.86279e-05	-3.72783e-03	
95	3.497360e-07	-1.03753e-04	-3.86226e-05	-7.77269e-03	
96	3.497427e-07	-1.29661e-04	-4.82330e-05	-1.19748e-02	
97	3.497444e-07	-1.39917e-04	-5.19675e-05	-1.37386e-02	
98	3.497477e-07	-1.67740e-04	-6.19858e-05	-1.84073e-02	
99	3.497544e-07	-3.38554e-04	-1.22481e-04	-4.73911e-02	
100	3.497561e-07	-4.76438e-04	-1.70877e-04	-7.20570e-02	
101	3.497594e-07	-1.47244e-03	-5.17094e-04	-2.59014e-01	
102	3.497602e-07	-2.50059e-03	-8.74175e-04	-4.69782e-01	
103	3.497619e-07	-1.89534e-02	-6.36712e-03	-4.11493e+00	
104	3.497641e-07	3.711027e-03	3.348699e-03	3.409682e+00	
105	3.497666e-07	-6.52349e-04	-2.07535e-03	-3.18848e+00	
106	3.497699e-07	-4.46115e-04	7.328078e-04	3.062382e+00	
107	3.497764e-07	8.853261e-04	-7.17158e-04	-2.94879e+00	
108	3.497842e-07	-1.21265e-03	1.518802e-04	2.887939e+00	
109	3.497998e-07	1.495462e-03	-2.06238e-04	-2.79989e+00	
110	3.498277e-07	-1.05006e-04	5.089270e-04	3.015835e+00	
111	3.498309e-07	-3.92680e-03	-1.09997e-03	-6.31427e-01	
112	3.498373e-07	2.371728e-04	2.853539e-04	2.067347e-01	

Index   time            v1#branch       v2#branch       v3#branch       
--------------------------------------------------------------------------------
113	3.498500e-07	-1.89995e-04	-3.62300e-04	-1.83980e-01	
114	3.498640e-07	9.790724e-05	2.389493e-04	1.938555e-01	
115	3.498892e-07	-7.23030e-05	-2.47028e-04	-1.70983e-01	
116	3.498955e-07	-7.55317e-05	-3.16891e-05	-1.14203e-03	
117	3.499081e-07	4.810919e-05	3.281509e-05	1.834245e-02	
118	3.499102e-07	1.988816e-05	1.393793e-05	1.184838e-02	
119	3.499143e-07	1.522090e-05	1.258970e-05	1.293039e-02	
120	3.499154e-07	2.261393e-05	1.617031e-05	1.371425e-02	
121	3.499175e-07	4.009386e-05	2.239545e-05	1.647183e-02	
122	3.499216e-07	1.240214e-04	4.666902e-05	3.030582e-02	
123	3.499227e-07	1.946184e-04	6.756182e-05	4.324002e-02	
124	3.499247e-07	2.715145e-02	9.372125e-03	5.141180e+00	
125	3.499269e-07	-9.27735e-03	-4.16716e-03	-4.93277e+00	
126	3.499292e-07	3.421856e-04	1.021109e-03	4.421529e+00	
127	3.499333e-07	6.127269e-04	-8.85716e-05	-4.23490e+00	
128	3.499402e-07	-6.50533e-04	2.503201e-04	4.282063e+00	
129	3.499502e-07	9.507398e-04	1.863365e-04	-4.10992e+00	
130	3.499589e-07	1.617214e-04	3.872570e-04	4.358287e+00	
131	3.499645e-07	-2.92290e-04	-1.68938e-04	-4.40956e+00	
132	3.499687e-07	-8.14259e-05	1.684549e-04	4.380067e+00	
133	3.499716e-07	3.707621e-04	1.750570e-04	-4.30709e+00	
134	3.499743e-07	-4.11296e-04	-6.43447e-05	4.260401e+00	
135	3.499768e-07	2.773199e-04	1.928978e-04	-4.23458e+00	
136	3.499796e-07	-2.07068e-04	-2.10444e-05	4.222620e+00	
137	3.499832e-07	1.180309e-04	1.266901e-04	-4.21814e+00	
138	3.499882e-07	-1.19561e-04	2.412117e-06	4.215301e+00	
139	3.499965e-07	6.490880e-05	8.676728e-05	-4.21475e+00	
140	3.500104e-07	-1.01725e-04	-1.28840e-05	4.213713e+00	
141	3.500355e-07	4.216632e-05	4.511321e-05	-4.21396e+00	
142	3.500820e-07	-1.07581e-04	-5.01152e-05	4.213323e+00	
143	3.501686e-07	2.551248e-05	1.162638e-05	-4.21374e+00	
144	3.503329e-07	-1.16899e-04	-5.99203e-05	4.213217e+00	
145	3.506444e-07	1.651018e-05	1.611277e-05	-4.21369e+00	
146	3.512674e-07	-1.20826e-04	-5.44709e-05	4.213192e+00	
147	3.525133e-07	1.591045e-05	1.745523e-05	-4.21366e+00	
148	3.550051e-07	-1.18782e-04	-5.38144e-05	4.213196e+00	
149	3.556280e-07	-5.06095e-05	-1.79001e-05	-2.25639e-04	
150	3.568739e-07	-5.13522e-05	-1.82266e-05	-4.21277e-04	
151	3.588442e-07	-5.36223e-05	-1.90423e-05	-7.64952e-04	
152	3.591442e-07	-5.53188e-05	-1.96894e-05	-9.98827e-04	
153	3.592192e-07	-5.80196e-05	-2.07941e-05	-1.38585e-03	
154	3.592380e-07	-5.95225e-05	-2.13834e-05	-1.61011e-03	
155	3.592755e-07	-6.28094e-05	-2.27306e-05	-2.08768e-03	
156	3.592848e-07	-6.32743e-05	-2.29671e-05	-2.14497e-03	
157	3.593036e-07	-6.61145e-05	-2.40980e-05	-2.57584e-03	
158	3.593411e-07	-8.30082e-05	-3.06459e-05	-5.12636e-03	
159	3.593505e-07	-1.22129e-04	-4.46571e-05	-1.13851e-02	
160	3.593528e-07	-1.42838e-04	-5.18760e-05	-1.49160e-02	
161	3.593575e-07	-2.24621e-04	-7.99489e-05	-2.88125e-02	
162	3.593583e-07	-2.50245e-04	-8.86867e-05	-3.32437e-02	
163	3.593599e-07	-3.17981e-04	-1.11745e-04	-4.52265e-02	
164	3.593630e-07	-6.65033e-04	-2.28794e-04	-1.07060e-01	
165	3.593638e-07	-8.76797e-04	-3.00104e-04	-1.46985e-01	
166	3.593654e-07	-1.67916e-03	-5.69685e-04	-3.04279e-01	
167	3.593657e-07	-1.92568e-03	-6.52485e-04	-3.55129e-01	
168	3.593662e-07	-2.57466e-03	-8.70912e-04	-4.95343e-01	
169	3.593672e-07	-5.75543e-03	-1.93359e-03	-1.18348e+00	
170	3.593693e-07	-1.43369e-02	-3.78530e-03	-2.27366e+00	

Index   time            v1#branch       v2#branch       v3#branch       
--------------------------------------------------------------------------------
171	3.593719e-07	5.520361e-03	3.019845e-03	2.095866e+00	
172	3.593756e-07	-2.80179e-03	-2.76259e-03	-2.00370e+00	
173	3.593801e-07	1.538300e-03	1.673031e-03	1.975095e+00	
174	3.593892e-07	-1.06162e-03	-1.76428e-03	-1.92672e+00	
175	3.594074e-07	8.284211e-04	1.356789e-03	1.927338e+00	
176	3.594437e-07	-6.53439e-04	-1.38327e-03	-1.88962e+00	
177	3.595096e-07	8.082257e-04	1.431392e-03	1.932827e+00	
178	3.596046e-07	-1.96746e-04	-1.10315e-03	-1.82530e+00	
179	3.596558e-07	3.315161e-04	1.218132e-03	1.865878e+00	
180	3.597047e-07	-4.71577e-04	-1.20093e-03	-1.89007e+00	
181	3.597840e-07	5.161402e-04	1.188965e-03	1.913793e+00	
182	3.598595e-07	-6.89406e-04	-1.24479e-03	-1.93621e+00	
183	3.599827e-07	6.632496e-04	1.204820e-03	1.948906e+00	
184	3.601674e-07	-7.86706e-04	-1.24940e-03	-1.95758e+00	
185	3.604683e-07	7.136658e-04	1.213359e-03	1.961962e+00	
186	3.610671e-07	-8.18809e-04	-1.24869e-03	-1.96481e+00	
187	3.622648e-07	7.246034e-04	1.213683e-03	1.965007e+00	
188	3.646600e-07	-8.19066e-04	-1.24631e-03	-1.96579e+00	
189	3.652589e-07	-4.37879e-05	-1.63631e-05	4.188757e-04	
190	3.657556e-07	-4.80340e-05	-1.63706e-05	-8.50866e-04	
191	3.661471e-07	-4.57376e-05	-1.70818e-05	1.143971e-04	
192	3.665287e-07	-5.00533e-05	-1.71565e-05	-1.14079e-03	
193	3.672919e-07	-4.55554e-05	-1.68032e-05	1.389637e-04	
194	3.674827e-07	-4.86948e-05	-1.73129e-05	-6.40247e-04	
195	3.678643e-07	-4.89515e-05	-1.74008e-05	-6.61848e-04	
196	3.686276e-07	-5.43903e-05	-1.94183e-05	-1.36350e-03	
197	3.686292e-07	-5.63249e-05	-2.00490e-05	-1.74430e-03	
198	3.686323e-07	-6.08300e-05	-2.14917e-05	-2.46752e-03	
199	3.686386e-07	-7.70540e-05	-2.68177e-05	-5.09721e-03	
200	3.686402e-07	-8.38073e-05	-2.90637e-05	-6.18849e-03	
201	3.686434e-07	-1.00961e-04	-3.47716e-05	-8.98421e-03	
202	3.686497e-07	-1.84438e-04	-6.24655e-05	-2.27251e-02	
203	3.686513e-07	-2.33863e-04	-7.87680e-05	-3.11068e-02	
204	3.686545e-07	-4.15935e-04	-1.38343e-04	-6.26886e-02	
205	3.686552e-07	-5.06061e-04	-1.67651e-04	-7.85858e-02	
206	3.686568e-07	-7.83390e-04	-2.57681e-04	-1.29490e-01	
207	3.686592e-07	-2.37866e-03	-7.69327e-04	-4.31031e-01	
208	3.686633e-07	-1.20556e-02	-2.93346e-03	-1.95892e+00	
209	3.686670e-07	6.407030e-03	2.700129e-03	1.853761e+00	
210	3.686730e-07	-4.32383e-03	-3.06115e-03	-1.78417e+00	
211	3.686796e-07	2.950623e-03	2.227972e-03	1.759137e+00	
212	3.686928e-07	-2.38804e-03	-2.39956e-03	-1.71813e+00	
213	3.687191e-07	2.106501e-03	2.081043e-03	1.717123e+00	
214	3.687256e-07	2.404793e-04	5.921582e-05	2.168849e-02	
215	3.687388e-07	-2.08237e-04	-1.25574e-04	-7.83572e-03	
216	3.687651e-07	1.838369e-04	1.045784e-04	1.992153e-02	
217	3.687716e-07	1.466368e-05	1.354718e-05	6.969172e-03	
218	3.687848e-07	-1.11773e-06	1.699565e-05	8.126793e-03	
219	3.687881e-07	9.913301e-06	2.165274e-05	8.328167e-03	
220	3.687946e-07	3.593504e-05	2.982917e-05	1.217800e-02	
221	3.687963e-07	4.294880e-05	3.181165e-05	1.316795e-02	
222	3.687996e-07	8.099389e-05	4.204599e-05	1.967091e-02	
223	3.688004e-07	9.803872e-05	4.609724e-05	2.225215e-02	
224	3.688020e-07	1.574434e-04	6.102189e-05	3.295593e-02	
225	3.688024e-07	1.826728e-04	6.719889e-05	3.727198e-02	
226	3.688033e-07	2.531984e-04	8.516674e-05	5.084337e-02	
227	3.688049e-07	8.059854e-04	2.303464e-04	1.621080e-01	
228	3.688082e-07	2.391648e-02	7.660839e-03	3.820897e+00	

Index   time            v1#branch       v2#branch       v3#branch       
--------------------------------------------------------------------------------
229	3.688113e-07	-2.23022e-02	-8.23889e-03	-5.21094e+00	
230	3.688146e-07	1.618778e-02	7.289074e-03	5.877725e+00	
231	3.688187e-07	-1.15268e-02	-5.38500e-03	-6.05500e+00	
232	3.688248e-07	9.094513e-03	4.838353e-03	6.190931e+00	
233	3.688347e-07	-7.71876e-03	-3.97291e-03	-6.18297e+00	
234	3.688544e-07	7.174933e-03	3.980870e-03	6.246943e+00	
235	3.688892e-07	-6.66815e-03	-3.63219e-03	-6.18511e+00	
236	3.689245e-07	6.455260e-03	3.603018e-03	6.213114e+00	
237	3.689369e-07	-5.84758e-03	-3.27202e-03	-6.26722e+00	
238	3.689491e-07	5.111856e-03	2.951573e-03	6.295577e+00	
239	3.689582e-07	-4.25580e-03	-2.53202e-03	-6.31191e+00	
240	3.689658e-07	3.273858e-03	2.064473e-03	6.315182e+00	
241	3.689736e-07	-2.57714e-03	-1.70168e-03	-6.31293e+00	
242	3.689810e-07	1.915227e-03	1.349483e-03	6.308093e+00	
243	3.689899e-07	-1.56612e-03	-1.14653e-03	-6.30514e+00	
244	3.690006e-07	1.244955e-03	9.560966e-04	6.302174e+00	
245	3.690146e-07	-1.12717e-03	-8.82389e-04	-6.30108e+00	
246	3.690344e-07	9.604732e-04	7.745747e-04	6.299561e+00	
247	3.690623e-07	-9.52293e-04	-7.71303e-04	-6.29942e+00	
248	3.691040e-07	8.424563e-04	6.971130e-04	6.298512e+00	
249	3.691665e-07	-8.84436e-04	-7.23966e-04	-6.29876e+00	
250	3.692617e-07	7.915819e-04	6.683912e-04	6.298093e+00	
251	3.694102e-07	-8.59852e-04	-7.00390e-04	-6.29849e+00	
252	3.696931e-07	7.699624e-04	6.609888e-04	6.297941e+00	
253	3.702587e-07	-8.53888e-04	-6.91265e-04	-6.29841e+00	
254	3.713901e-07	7.651418e-04	6.591807e-04	6.297906e+00	
255	3.736529e-07	-8.50472e-04	-6.89343e-04	-6.29838e+00	
256	3.781784e-07	7.659315e-04	6.591290e-04	6.297877e+00	
257	3.787262e-07	-4.28006e-05	-1.50549e-05	-5.28574e-04	
258	3.798219e-07	-4.67647e-05	-1.68136e-05	-8.20130e-04	
259	3.799353e-07	-4.79574e-05	-1.70689e-05	-1.08477e-03	
260	3.799637e-07	-5.12944e-05	-1.82951e-05	-1.58470e-03	
261	3.799708e-07	-5.31976e-05	-1.89517e-05	-1.87987e-03	
262	3.799850e-07	-6.05064e-05	-2.14374e-05	-3.01245e-03	
263	3.799885e-07	-6.40796e-05	-2.26443e-05	-3.56761e-03	
264	3.799956e-07	-7.53495e-05	-2.63886e-05	-5.34769e-03	
265	3.799974e-07	-7.99740e-05	-2.79076e-05	-6.07629e-03	
266	3.800009e-07	-9.22212e-05	-3.18976e-05	-8.04281e-03	
267	3.800080e-07	-1.56545e-04	-5.23940e-05	-1.84287e-02	
268	3.800098e-07	-1.95665e-04	-6.46921e-05	-2.49083e-02	
269	3.800133e-07	-3.38926e-04	-1.09183e-04	-4.90594e-02	
270	3.800142e-07	-4.08936e-04	-1.30726e-04	-6.10055e-02	
271	3.800160e-07	-6.22100e-04	-1.96096e-04	-9.87352e-02	
272	3.800164e-07	-6.95848e-04	-2.18504e-04	-1.11497e-01	
273	3.800172e-07	-8.82780e-04	-2.75534e-04	-1.46326e-01	
274	3.800188e-07	-1.62618e-03	-4.99664e-04	-2.82464e-01	
275	3.800219e-07	-1.70261e-02	-4.02073e-03	-3.00732e+00	
276	3.800252e-07	8.050151e-03	4.346073e-03	2.804282e+00	
277	3.800295e-07	-4.52192e-03	-4.66200e-03	-2.69450e+00	
278	3.800356e-07	2.899173e-03	3.357504e-03	2.649031e+00	
279	3.800479e-07	-2.24065e-03	-3.54661e-03	-2.59829e+00	
280	3.800724e-07	1.913052e-03	3.060413e-03	2.588556e+00	
281	3.800785e-07	2.764606e-04	9.639511e-05	2.593877e-02	
282	3.800908e-07	-2.29531e-04	-2.05872e-04	-1.44068e-02	
283	3.801153e-07	2.130155e-04	1.572799e-04	2.422218e-02	
284	3.801644e-07	-1.47125e-04	-1.06927e-04	-6.59935e-03	
285	3.801660e-07	1.430769e-05	2.647994e-05	1.387879e-02	
286	3.801690e-07	2.542429e-02	7.545803e-03	4.277478e+00	

Index   time            v1#branch       v2#branch       v3#branch       
--------------------------------------------------------------------------------
287	3.801719e-07	-2.00783e-02	-7.27913e-03	-5.40643e+00	
288	3.801749e-07	1.281825e-02	6.056533e-03	5.800134e+00	
289	3.801790e-07	-8.60932e-03	-4.18074e-03	-5.87653e+00	
290	3.801860e-07	6.904748e-03	3.952378e-03	5.957161e+00	
291	3.801992e-07	-6.02450e-03	-3.23134e-03	-5.93379e+00	
292	3.802256e-07	5.702620e-03	3.336549e-03	5.978011e+00	
293	3.802785e-07	-5.46680e-03	-3.12611e-03	-5.94351e+00	
294	3.803676e-07	5.432141e-03	3.120168e-03	5.964403e+00	
295	3.804086e-07	-5.39548e-03	-3.10622e-03	-5.99568e+00	
296	3.804466e-07	5.200487e-03	2.982280e-03	6.018507e+00	
297	3.804826e-07	-5.06560e-03	-2.93580e-03	-6.03388e+00	
298	3.805154e-07	4.774899e-03	2.780700e-03	6.044036e+00	
299	3.805478e-07	-4.58973e-03	-2.71154e-03	-6.05041e+00	
300	3.805792e-07	4.269074e-03	2.550063e-03	6.052915e+00	
301	3.806099e-07	-4.07476e-03	-2.47247e-03	-6.05414e+00	
302	3.806407e-07	3.755560e-03	2.314797e-03	6.052896e+00	
303	3.806713e-07	-3.58079e-03	-2.24025e-03	-6.05167e+00	
304	3.807025e-07	3.283752e-03	2.093864e-03	6.048909e+00	
305	3.807345e-07	-3.14439e-03	-2.02983e-03	-6.04692e+00	
306	3.807682e-07	2.883915e-03	1.901157e-03	6.043914e+00	
307	3.808042e-07	-2.78924e-03	-1.85330e-03	-6.04207e+00	
308	3.808440e-07	2.572540e-03	1.746655e-03	6.039469e+00	
309	3.808901e-07	-2.52869e-03	-1.71976e-03	-6.03822e+00	
310	3.809446e-07	2.357960e-03	1.637717e-03	6.036268e+00	
311	3.810120e-07	-2.35919e-03	-1.63048e-03	-6.03564e+00	
312	3.811015e-07	2.227642e-03	1.570783e-03	6.034306e+00	
313	3.812259e-07	-2.26666e-03	-1.58047e-03	-6.03423e+00	
314	3.814166e-07	2.163577e-03	1.538028e-03	6.033347e+00	
315	3.817323e-07	-2.22744e-03	-1.55879e-03	-6.03362e+00	
316	3.823246e-07	2.140754e-03	1.526375e-03	6.033008e+00	
317	3.835092e-07	-2.21517e-03	-1.55225e-03	-6.03344e+00	
318	3.858785e-07	2.135774e-03	1.523595e-03	6.032932e+00	
319	3.906170e-07	-2.21080e-03	-1.55018e-03	-6.03343e+00	
320	3.909374e-07	-4.12839e-05	-1.52789e-05	-3.05163e-04	
321	3.915783e-07	-3.92778e-05	-1.35143e-05	-9.41251e-04	
322	3.917385e-07	-4.10526e-05	-1.45469e-05	-7.01247e-04	
323	3.920589e-07	-4.50112e-05	-1.59605e-05	-1.26004e-03	
324	3.921390e-07	-4.80676e-05	-1.71830e-05	-1.69693e-03	
325	3.921415e-07	-4.90271e-05	-1.74631e-05	-1.86277e-03	
