               * c:\users\lenovo\esim-workspace\nanddd\nanddd.cir
               Transient Analysis  Fri Feb 28 19:10:40  2025
--------------------------------------------------------------------------------
Index   time            ain             bin             net-_m1-pad1_   
--------------------------------------------------------------------------------
0	0.000000e+00	0.000000e+00	0.000000e+00	5.000000e+00	
1	5.000000e-11	5.000000e-02	5.000000e-02	5.000000e+00	
2	1.000000e-10	1.000000e-01	1.000000e-01	5.000000e+00	
3	2.000000e-10	2.000000e-01	2.000000e-01	5.000000e+00	
4	2.994893e-10	2.994893e-01	2.994893e-01	5.000000e+00	
5	3.975386e-10	3.975386e-01	3.975386e-01	5.000000e+00	
6	5.144050e-10	5.144050e-01	5.144050e-01	5.000000e+00	
7	6.841879e-10	6.841879e-01	6.841879e-01	5.000000e+00	
8	1.023754e-09	1.023754e+00	1.023754e+00	5.000000e+00	
9	1.468731e-09	1.468731e+00	1.468731e+00	5.000000e+00	
10	2.147661e-09	2.147661e+00	2.147661e+00	5.000000e+00	
11	3.384812e-09	3.384812e+00	3.384812e+00	5.000000e+00	
12	5.000000e-09	5.000000e+00	5.000000e+00	5.000000e+00	
13	5.050084e-09	5.000000e+00	5.000000e+00	5.000000e+00	
14	5.150253e-09	5.000000e+00	5.000000e+00	5.000000e+00	
15	5.350590e-09	5.000000e+00	5.000000e+00	5.000000e+00	
16	5.667914e-09	5.000000e+00	5.000000e+00	5.000000e+00	
17	6.000192e-09	5.000000e+00	5.000000e+00	5.000000e+00	
18	6.664748e-09	5.000000e+00	5.000000e+00	5.000000e+00	
19	7.993860e-09	5.000000e+00	5.000000e+00	5.000000e+00	
20	1.065208e-08	5.000000e+00	5.000000e+00	5.000000e+00	
21	1.485575e-08	5.000000e+00	5.000000e+00	5.000000e+00	
22	2.239702e-08	5.000000e+00	5.000000e+00	5.000000e+00	
23	3.507795e-08	5.000000e+00	5.000000e+00	5.000000e+00	
24	5.839631e-08	5.000000e+00	5.000000e+00	5.000000e+00	
25	8.152679e-08	5.000000e+00	5.000000e+00	5.000000e+00	
26	1.088803e-07	5.000000e+00	5.000000e+00	5.000000e+00	
27	1.303490e-07	5.000000e+00	5.000000e+00	5.000000e+00	
28	1.512276e-07	5.000000e+00	5.000000e+00	5.000000e+00	
29	1.725820e-07	5.000000e+00	5.000000e+00	5.000000e+00	
30	2.001674e-07	5.000000e+00	5.000000e+00	5.000000e+00	
31	2.553382e-07	5.000000e+00	5.000000e+00	5.000000e+00	
32	3.139898e-07	5.000000e+00	5.000000e+00	5.000000e+00	
33	3.702092e-07	5.000000e+00	5.000000e+00	5.000000e+00	
34	4.695063e-07	5.000000e+00	5.000000e+00	5.000000e+00	
35	6.026616e-07	5.000000e+00	5.000000e+00	5.000000e+00	
36	8.689724e-07	5.000000e+00	5.000000e+00	5.000000e+00	
37	1.401594e-06	5.000000e+00	5.000000e+00	5.000000e+00	
38	2.466837e-06	5.000000e+00	5.000000e+00	5.000000e+00	
39	4.246489e-06	5.000000e+00	5.000000e+00	5.000000e+00	
40	7.325204e-06	5.000000e+00	5.000000e+00	5.000000e+00	
41	1.348263e-05	5.000000e+00	5.000000e+00	5.000000e+00	
42	2.579749e-05	5.000000e+00	5.000000e+00	5.000000e+00	
43	5.042720e-05	5.000000e+00	5.000000e+00	5.000000e+00	
44	9.968663e-05	5.000000e+00	5.000000e+00	5.000000e+00	
45	1.982055e-04	5.000000e+00	5.000000e+00	5.000000e+00	
46	3.952432e-04	5.000000e+00	5.000000e+00	5.000000e+00	
47	7.893186e-04	5.000000e+00	5.000000e+00	5.000000e+00	
48	1.577469e-03	5.000000e+00	5.000000e+00	5.000000e+00	
49	2.577469e-03	5.000000e+00	5.000000e+00	5.000000e+00	
50	3.577469e-03	5.000000e+00	5.000000e+00	5.000000e+00	
51	4.577469e-03	5.000000e+00	5.000000e+00	5.000000e+00	
52	5.577469e-03	5.000000e+00	5.000000e+00	5.000000e+00	
53	6.577469e-03	5.000000e+00	5.000000e+00	5.000000e+00	
54	7.577469e-03	5.000000e+00	5.000000e+00	5.000000e+00	

Index   time            ain             bin             net-_m1-pad1_   
--------------------------------------------------------------------------------
55	8.577469e-03	5.000000e+00	5.000000e+00	5.000000e+00	
56	9.577469e-03	5.000000e+00	5.000000e+00	5.000000e+00	
57	1.057747e-02	5.000000e+00	5.000000e+00	5.000000e+00	
58	1.157747e-02	5.000000e+00	5.000000e+00	5.000000e+00	
59	1.257747e-02	5.000000e+00	5.000000e+00	5.000000e+00	
60	1.357747e-02	5.000000e+00	5.000000e+00	5.000000e+00	
61	1.457747e-02	5.000000e+00	5.000000e+00	5.000000e+00	
62	1.557747e-02	5.000000e+00	5.000000e+00	5.000000e+00	
63	1.657747e-02	5.000000e+00	5.000000e+00	5.000000e+00	
64	1.757747e-02	5.000000e+00	5.000000e+00	5.000000e+00	
65	1.857747e-02	5.000000e+00	5.000000e+00	5.000000e+00	
66	1.957747e-02	5.000000e+00	5.000000e+00	5.000000e+00	
67	2.000001e-02	5.000000e+00	5.000000e+00	5.000000e+00	
68	2.000001e-02	5.000000e+00	4.500000e+00	5.000000e+00	
69	2.000001e-02	5.000000e+00	3.500000e+00	5.000000e+00	
70	2.000001e-02	5.000000e+00	3.333572e+00	5.000000e+00	
71	2.000001e-02	5.000000e+00	3.000716e+00	5.000000e+00	
72	2.000001e-02	5.000000e+00	2.335004e+00	5.000000e+00	
73	2.000001e-02	5.000000e+00	1.727777e+00	5.000000e+00	
74	2.000001e-02	5.000000e+00	5.133229e-01	5.000000e+00	
75	2.000001e-02	5.000000e+00	0.000000e+00	5.000000e+00	
76	2.000001e-02	5.000000e+00	0.000000e+00	5.000000e+00	
77	2.000001e-02	5.000000e+00	0.000000e+00	5.000000e+00	
78	2.000001e-02	5.000000e+00	0.000000e+00	5.000000e+00	
79	2.000001e-02	5.000000e+00	0.000000e+00	5.000000e+00	
80	2.000001e-02	5.000000e+00	0.000000e+00	5.000000e+00	
81	2.000001e-02	5.000000e+00	0.000000e+00	5.000000e+00	
82	2.000001e-02	5.000000e+00	0.000000e+00	5.000000e+00	
83	2.000002e-02	5.000000e+00	0.000000e+00	5.000000e+00	
84	2.000002e-02	5.000000e+00	0.000000e+00	5.000000e+00	
85	2.000003e-02	5.000000e+00	0.000000e+00	5.000000e+00	
86	2.000004e-02	5.000000e+00	0.000000e+00	5.000000e+00	
87	2.000006e-02	5.000000e+00	0.000000e+00	5.000000e+00	
88	2.000011e-02	5.000000e+00	0.000000e+00	5.000000e+00	
89	2.000019e-02	5.000000e+00	0.000000e+00	5.000000e+00	
90	2.000023e-02	5.000000e+00	0.000000e+00	5.000000e+00	
91	2.000027e-02	5.000000e+00	0.000000e+00	5.000000e+00	
92	2.000031e-02	5.000000e+00	0.000000e+00	5.000000e+00	
93	2.000037e-02	5.000000e+00	0.000000e+00	5.000000e+00	
94	2.000045e-02	5.000000e+00	0.000000e+00	5.000000e+00	
95	2.000055e-02	5.000000e+00	0.000000e+00	5.000000e+00	
96	2.000072e-02	5.000000e+00	0.000000e+00	5.000000e+00	
97	2.000102e-02	5.000000e+00	0.000000e+00	5.000000e+00	
98	2.000145e-02	5.000000e+00	0.000000e+00	5.000000e+00	
99	2.000190e-02	5.000000e+00	0.000000e+00	5.000000e+00	
100	2.000237e-02	5.000000e+00	0.000000e+00	5.000000e+00	
101	2.000281e-02	5.000000e+00	0.000000e+00	5.000000e+00	
102	2.000348e-02	5.000000e+00	0.000000e+00	5.000000e+00	
103	2.000473e-02	5.000000e+00	0.000000e+00	5.000000e+00	
104	2.000723e-02	5.000000e+00	0.000000e+00	5.000000e+00	
105	2.001224e-02	5.000000e+00	0.000000e+00	5.000000e+00	
106	2.002226e-02	5.000000e+00	0.000000e+00	5.000000e+00	
107	2.004229e-02	5.000000e+00	0.000000e+00	5.000000e+00	
108	2.008236e-02	5.000000e+00	0.000000e+00	5.000000e+00	
109	2.016250e-02	5.000000e+00	0.000000e+00	5.000000e+00	
110	2.032279e-02	5.000000e+00	0.000000e+00	5.000000e+00	
111	2.064335e-02	5.000000e+00	0.000000e+00	5.000000e+00	
112	2.128447e-02	5.000000e+00	0.000000e+00	5.000000e+00	

Index   time            ain             bin             net-_m1-pad1_   
--------------------------------------------------------------------------------
113	2.228447e-02	5.000000e+00	0.000000e+00	5.000000e+00	
114	2.328447e-02	5.000000e+00	0.000000e+00	5.000000e+00	
115	2.428447e-02	5.000000e+00	0.000000e+00	5.000000e+00	
116	2.528447e-02	5.000000e+00	0.000000e+00	5.000000e+00	
117	2.628447e-02	5.000000e+00	0.000000e+00	5.000000e+00	
118	2.728447e-02	5.000000e+00	0.000000e+00	5.000000e+00	
119	2.828447e-02	5.000000e+00	0.000000e+00	5.000000e+00	
120	2.928447e-02	5.000000e+00	0.000000e+00	5.000000e+00	
121	3.028447e-02	5.000000e+00	0.000000e+00	5.000000e+00	
122	3.128447e-02	5.000000e+00	0.000000e+00	5.000000e+00	
123	3.228447e-02	5.000000e+00	0.000000e+00	5.000000e+00	
124	3.328447e-02	5.000000e+00	0.000000e+00	5.000000e+00	
125	3.428447e-02	5.000000e+00	0.000000e+00	5.000000e+00	
126	3.528447e-02	5.000000e+00	0.000000e+00	5.000000e+00	
127	3.628447e-02	5.000000e+00	0.000000e+00	5.000000e+00	
128	3.728447e-02	5.000000e+00	0.000000e+00	5.000000e+00	
129	3.828447e-02	5.000000e+00	0.000000e+00	5.000000e+00	
130	3.928447e-02	5.000000e+00	0.000000e+00	5.000000e+00	
131	4.000000e-02	5.000000e+00	0.000000e+00	5.000000e+00	
132	4.000000e-02	5.000000e+00	5.000000e-01	5.000000e+00	
133	4.000000e-02	5.000000e+00	1.500000e+00	5.000000e+00	
134	4.000000e-02	5.000000e+00	2.134804e+00	5.000000e+00	
135	4.000000e-02	5.000000e+00	2.748461e+00	5.000000e+00	
136	4.000000e-02	5.000000e+00	3.969987e+00	5.000000e+00	
137	4.000001e-02	5.000000e+00	5.000000e+00	5.000000e+00	
138	4.000001e-02	4.929286e+00	5.000000e+00	5.000000e+00	
139	4.000001e-02	4.787858e+00	5.000000e+00	5.000000e+00	
140	4.000001e-02	4.505002e+00	5.000000e+00	5.000000e+00	
141	4.000001e-02	4.079677e+00	5.000000e+00	5.000000e+00	
142	4.000001e-02	3.731892e+00	5.000000e+00	5.000000e+00	
143	4.000001e-02	3.601740e+00	5.000000e+00	5.000000e+00	
144	4.000001e-02	3.523728e+00	5.000000e+00	5.000000e+00	
145	4.000001e-02	3.448189e+00	5.000000e+00	5.000000e+00	
146	4.000001e-02	3.297111e+00	5.000000e+00	5.000000e+00	
147	4.000001e-02	3.033106e+00	5.000000e+00	5.000000e+00	
148	4.000001e-02	2.596729e+00	5.000000e+00	5.000000e+00	
149	4.000001e-02	1.912397e+00	5.000000e+00	5.000000e+00	
150	4.000001e-02	1.254335e+00	5.000000e+00	5.000000e+00	
151	4.000001e-02	5.194260e-01	5.000000e+00	5.000000e+00	
152	4.000001e-02	0.000000e+00	5.000000e+00	5.000000e+00	
153	4.000001e-02	0.000000e+00	5.000000e+00	5.000000e+00	
154	4.000001e-02	0.000000e+00	5.000000e+00	5.000000e+00	
155	4.000001e-02	0.000000e+00	5.000000e+00	5.000000e+00	
156	4.000001e-02	0.000000e+00	5.000000e+00	5.000000e+00	
157	4.000001e-02	0.000000e+00	5.000000e+00	5.000000e+00	
158	4.000001e-02	0.000000e+00	5.000000e+00	5.000000e+00	
159	4.000001e-02	0.000000e+00	5.000000e+00	5.000000e+00	
160	4.000001e-02	0.000000e+00	5.000000e+00	5.000000e+00	
161	4.000001e-02	0.000000e+00	5.000000e+00	5.000000e+00	
162	4.000001e-02	0.000000e+00	5.000000e+00	5.000000e+00	
163	4.000001e-02	0.000000e+00	5.000000e+00	5.000000e+00	
164	4.000001e-02	0.000000e+00	5.000000e+00	5.000000e+00	
165	4.000001e-02	0.000000e+00	5.000000e+00	5.000000e+00	
166	4.000002e-02	0.000000e+00	5.000000e+00	5.000000e+00	
167	4.000002e-02	0.000000e+00	5.000000e+00	5.000000e+00	
168	4.000002e-02	0.000000e+00	5.000000e+00	5.000000e+00	
169	4.000003e-02	0.000000e+00	5.000000e+00	5.000000e+00	
170	4.000003e-02	0.000000e+00	5.000000e+00	5.000000e+00	

Index   time            ain             bin             net-_m1-pad1_   
--------------------------------------------------------------------------------
171	4.000004e-02	0.000000e+00	5.000000e+00	5.000000e+00	
172	4.000004e-02	0.000000e+00	5.000000e+00	5.000000e+00	
173	4.000004e-02	0.000000e+00	5.000000e+00	5.000000e+00	
174	4.000005e-02	0.000000e+00	5.000000e+00	5.000000e+00	
175	4.000005e-02	0.000000e+00	5.000000e+00	5.000000e+00	
176	4.000007e-02	0.000000e+00	5.000000e+00	5.000000e+00	
177	4.000009e-02	0.000000e+00	5.000000e+00	5.000000e+00	
178	4.000011e-02	0.000000e+00	5.000000e+00	5.000000e+00	
179	4.000014e-02	0.000000e+00	5.000000e+00	5.000000e+00	
180	4.000018e-02	0.000000e+00	5.000000e+00	5.000000e+00	
181	4.000024e-02	0.000000e+00	5.000000e+00	5.000000e+00	
182	4.000037e-02	0.000000e+00	5.000000e+00	5.000000e+00	
183	4.000051e-02	0.000000e+00	5.000000e+00	5.000000e+00	
184	4.000070e-02	0.000000e+00	5.000000e+00	5.000000e+00	
185	4.000098e-02	0.000000e+00	5.000000e+00	5.000000e+00	
186	4.000150e-02	0.000000e+00	5.000000e+00	5.000000e+00	
187	4.000242e-02	0.000000e+00	5.000000e+00	5.000000e+00	
188	4.000426e-02	0.000000e+00	5.000000e+00	5.000000e+00	
189	4.000794e-02	0.000000e+00	5.000000e+00	5.000000e+00	
190	4.001530e-02	0.000000e+00	5.000000e+00	5.000000e+00	
191	4.003002e-02	0.000000e+00	5.000000e+00	5.000000e+00	
192	4.005945e-02	0.000000e+00	5.000000e+00	5.000000e+00	
193	4.011832e-02	0.000000e+00	5.000000e+00	5.000000e+00	
194	4.023606e-02	0.000000e+00	5.000000e+00	5.000000e+00	
195	4.047154e-02	0.000000e+00	5.000000e+00	5.000000e+00	
196	4.094250e-02	0.000000e+00	5.000000e+00	5.000000e+00	
197	4.188442e-02	0.000000e+00	5.000000e+00	5.000000e+00	
198	4.288442e-02	0.000000e+00	5.000000e+00	5.000000e+00	
199	4.388442e-02	0.000000e+00	5.000000e+00	5.000000e+00	
200	4.488442e-02	0.000000e+00	5.000000e+00	5.000000e+00	
201	4.588442e-02	0.000000e+00	5.000000e+00	5.000000e+00	
202	4.688442e-02	0.000000e+00	5.000000e+00	5.000000e+00	
203	4.788442e-02	0.000000e+00	5.000000e+00	5.000000e+00	
204	4.888442e-02	0.000000e+00	5.000000e+00	5.000000e+00	
205	4.988442e-02	0.000000e+00	5.000000e+00	5.000000e+00	
206	5.088442e-02	0.000000e+00	5.000000e+00	5.000000e+00	
207	5.188442e-02	0.000000e+00	5.000000e+00	5.000000e+00	
208	5.288442e-02	0.000000e+00	5.000000e+00	5.000000e+00	
209	5.388442e-02	0.000000e+00	5.000000e+00	5.000000e+00	
210	5.488442e-02	0.000000e+00	5.000000e+00	5.000000e+00	
211	5.588442e-02	0.000000e+00	5.000000e+00	5.000000e+00	
212	5.688442e-02	0.000000e+00	5.000000e+00	5.000000e+00	
213	5.788442e-02	0.000000e+00	5.000000e+00	5.000000e+00	
214	5.888442e-02	0.000000e+00	5.000000e+00	5.000000e+00	
215	5.988442e-02	0.000000e+00	5.000000e+00	5.000000e+00	
216	6.000001e-02	0.000000e+00	5.000000e+00	5.000000e+00	
217	6.000001e-02	0.000000e+00	4.500000e+00	5.000000e+00	
218	6.000001e-02	0.000000e+00	3.500000e+00	5.000000e+00	
219	6.000001e-02	0.000000e+00	2.777971e+00	5.000000e+00	
220	6.000001e-02	0.000000e+00	1.907069e+00	5.000000e+00	
221	6.000001e-02	0.000000e+00	9.749097e-01	5.000000e+00	
222	6.000001e-02	0.000000e+00	6.101231e-09	5.000000e+00	
223	6.000001e-02	0.000000e+00	0.000000e+00	5.000000e+00	
224	6.000001e-02	0.000000e+00	0.000000e+00	5.000000e+00	
225	6.000001e-02	0.000000e+00	0.000000e+00	5.000000e+00	
226	6.000001e-02	0.000000e+00	0.000000e+00	5.000000e+00	
227	6.000001e-02	0.000000e+00	0.000000e+00	5.000000e+00	
228	6.000001e-02	0.000000e+00	0.000000e+00	5.000000e+00	

Index   time            ain             bin             net-_m1-pad1_   
--------------------------------------------------------------------------------
229	6.000001e-02	0.000000e+00	0.000000e+00	5.000000e+00	
230	6.000002e-02	0.000000e+00	0.000000e+00	5.000000e+00	
231	6.000002e-02	0.000000e+00	0.000000e+00	5.000000e+00	
232	6.000003e-02	0.000000e+00	0.000000e+00	5.000000e+00	
233	6.000004e-02	0.000000e+00	0.000000e+00	5.000000e+00	
234	6.000005e-02	0.000000e+00	0.000000e+00	5.000000e+00	
235	6.000007e-02	0.000000e+00	0.000000e+00	5.000000e+00	
236	6.000010e-02	0.000000e+00	0.000000e+00	5.000000e+00	
237	6.000014e-02	0.000000e+00	0.000000e+00	5.000000e+00	
238	6.000022e-02	0.000000e+00	0.000000e+00	5.000000e+00	
239	6.000035e-02	0.000000e+00	0.000000e+00	5.000000e+00	
240	6.000063e-02	0.000000e+00	0.000000e+00	5.000000e+00	
241	6.000094e-02	0.000000e+00	0.000000e+00	5.000000e+00	
242	6.000140e-02	0.000000e+00	0.000000e+00	5.000000e+00	
243	6.000213e-02	0.000000e+00	0.000000e+00	5.000000e+00	
244	6.000360e-02	0.000000e+00	0.000000e+00	5.000000e+00	
245	6.000654e-02	0.000000e+00	0.000000e+00	5.000000e+00	
246	6.001243e-02	0.000000e+00	0.000000e+00	5.000000e+00	
247	6.002420e-02	0.000000e+00	0.000000e+00	5.000000e+00	
248	6.004774e-02	0.000000e+00	0.000000e+00	5.000000e+00	
249	6.009482e-02	0.000000e+00	0.000000e+00	5.000000e+00	
250	6.018898e-02	0.000000e+00	0.000000e+00	5.000000e+00	
251	6.037729e-02	0.000000e+00	0.000000e+00	5.000000e+00	
252	6.075392e-02	0.000000e+00	0.000000e+00	5.000000e+00	
253	6.150718e-02	0.000000e+00	0.000000e+00	5.000000e+00	
254	6.250718e-02	0.000000e+00	0.000000e+00	5.000000e+00	
255	6.350718e-02	0.000000e+00	0.000000e+00	5.000000e+00	
256	6.450718e-02	0.000000e+00	0.000000e+00	5.000000e+00	
257	6.550718e-02	0.000000e+00	0.000000e+00	5.000000e+00	
258	6.650718e-02	0.000000e+00	0.000000e+00	5.000000e+00	
259	6.750718e-02	0.000000e+00	0.000000e+00	5.000000e+00	
260	6.850718e-02	0.000000e+00	0.000000e+00	5.000000e+00	
261	6.950718e-02	0.000000e+00	0.000000e+00	5.000000e+00	
262	7.050718e-02	0.000000e+00	0.000000e+00	5.000000e+00	
263	7.150718e-02	0.000000e+00	0.000000e+00	5.000000e+00	
264	7.250718e-02	0.000000e+00	0.000000e+00	5.000000e+00	
265	7.350718e-02	0.000000e+00	0.000000e+00	5.000000e+00	
266	7.450718e-02	0.000000e+00	0.000000e+00	5.000000e+00	
267	7.550718e-02	0.000000e+00	0.000000e+00	5.000000e+00	
268	7.650718e-02	0.000000e+00	0.000000e+00	5.000000e+00	
269	7.750718e-02	0.000000e+00	0.000000e+00	5.000000e+00	
270	7.850718e-02	0.000000e+00	0.000000e+00	5.000000e+00	
271	7.950718e-02	0.000000e+00	0.000000e+00	5.000000e+00	
272	8.000000e-02	0.000000e+00	0.000000e+00	5.000000e+00	
273	8.000000e-02	5.000000e-01	5.000000e-01	5.000000e+00	
274	8.000000e-02	1.500000e+00	1.500000e+00	5.000000e+00	
275	8.000000e-02	2.234338e+00	2.234338e+00	5.000000e+00	
276	8.000000e-02	2.977498e+00	2.977498e+00	5.000000e+00	
277	8.000000e-02	4.162672e+00	4.162672e+00	5.000000e+00	
278	8.000001e-02	5.000000e+00	5.000000e+00	5.000000e+00	
279	8.000001e-02	5.000000e+00	5.000000e+00	5.000000e+00	
280	8.000001e-02	5.000000e+00	5.000000e+00	5.000000e+00	
281	8.000001e-02	5.000000e+00	5.000000e+00	5.000000e+00	
282	8.000001e-02	5.000000e+00	5.000000e+00	5.000000e+00	
283	8.000001e-02	5.000000e+00	5.000000e+00	5.000000e+00	
284	8.000001e-02	5.000000e+00	5.000000e+00	5.000000e+00	
285	8.000001e-02	5.000000e+00	5.000000e+00	5.000000e+00	
286	8.000001e-02	5.000000e+00	5.000000e+00	5.000000e+00	

Index   time            ain             bin             net-_m1-pad1_   
--------------------------------------------------------------------------------
287	8.000001e-02	5.000000e+00	5.000000e+00	5.000000e+00	
288	8.000002e-02	5.000000e+00	5.000000e+00	5.000000e+00	
289	8.000003e-02	5.000000e+00	5.000000e+00	5.000000e+00	
290	8.000005e-02	5.000000e+00	5.000000e+00	5.000000e+00	
291	8.000008e-02	5.000000e+00	5.000000e+00	5.000000e+00	
292	8.000011e-02	5.000000e+00	5.000000e+00	5.000000e+00	
293	8.000013e-02	5.000000e+00	5.000000e+00	5.000000e+00	
294	8.000015e-02	5.000000e+00	5.000000e+00	5.000000e+00	
295	8.000017e-02	5.000000e+00	5.000000e+00	5.000000e+00	
296	8.000020e-02	5.000000e+00	5.000000e+00	5.000000e+00	
297	8.000026e-02	5.000000e+00	5.000000e+00	5.000000e+00	
298	8.000032e-02	5.000000e+00	5.000000e+00	5.000000e+00	
299	8.000038e-02	5.000000e+00	5.000000e+00	5.000000e+00	
300	8.000047e-02	5.000000e+00	5.000000e+00	5.000000e+00	
301	8.000060e-02	5.000000e+00	5.000000e+00	5.000000e+00	
302	8.000080e-02	5.000000e+00	5.000000e+00	5.000000e+00	
303	8.000118e-02	5.000000e+00	5.000000e+00	5.000000e+00	
304	8.000196e-02	5.000000e+00	5.000000e+00	5.000000e+00	
305	8.000350e-02	5.000000e+00	5.000000e+00	5.000000e+00	
306	8.000607e-02	5.000000e+00	5.000000e+00	5.000000e+00	
307	8.001120e-02	5.000000e+00	5.000000e+00	5.000000e+00	
308	8.002147e-02	5.000000e+00	5.000000e+00	5.000000e+00	
309	8.004201e-02	5.000000e+00	5.000000e+00	5.000000e+00	
310	8.008308e-02	5.000000e+00	5.000000e+00	5.000000e+00	
311	8.016523e-02	5.000000e+00	5.000000e+00	5.000000e+00	
312	8.032952e-02	5.000000e+00	5.000000e+00	5.000000e+00	
313	8.065810e-02	5.000000e+00	5.000000e+00	5.000000e+00	
314	8.131526e-02	5.000000e+00	5.000000e+00	5.000000e+00	
315	8.231526e-02	5.000000e+00	5.000000e+00	5.000000e+00	
316	8.331526e-02	5.000000e+00	5.000000e+00	5.000000e+00	
317	8.431526e-02	5.000000e+00	5.000000e+00	5.000000e+00	
318	8.531526e-02	5.000000e+00	5.000000e+00	5.000000e+00	
319	8.631526e-02	5.000000e+00	5.000000e+00	5.000000e+00	
320	8.731526e-02	5.000000e+00	5.000000e+00	5.000000e+00	
321	8.831526e-02	5.000000e+00	5.000000e+00	5.000000e+00	
322	8.931526e-02	5.000000e+00	5.000000e+00	5.000000e+00	
323	9.031526e-02	5.000000e+00	5.000000e+00	5.000000e+00	
324	9.131526e-02	5.000000e+00	5.000000e+00	5.000000e+00	
325	9.231526e-02	5.000000e+00	5.000000e+00	5.000000e+00	
